T5144 000:047.101   SEGGER J-Link V8.74a Log File
T5144 000:047.835   DLL Compiled: Oct  2 2025 18:07:09
T5144 000:047.847   Logging started @ 2026-06-10 09:45
T5144 000:047.858   Process: D:\Keil_v5\UV4\UV4.exe
T5144 000:048.282 - 47.869ms 
T5144 000:048.574 JLINK_SetWarnOutHandler(...)
T5144 000:048.585 - 0.287ms 
T5144 000:048.599 JLINK_OpenEx(...)
T5144 000:054.496   Firmware: J-Link V9 compiled May  7 2021 16:26:12
T5144 000:055.577   Firmware: J-Link V9 compiled May  7 2021 16:26:12
T5144 000:056.441   Decompressing FW timestamp took 727 us
T5144 000:062.009   Hardware: V9.70
T5144 000:062.032   S/N: 602712267
T5144 000:062.049   OEM: SEGGER
T5144 000:062.065   Feature(s): GDB, RDI, FlashBP, FlashDL, JFlash
T5144 000:063.466   Bootloader: (FW returned invalid version)
T5144 000:064.851   TELNET listener socket opened on port 19021
T5144 000:065.000   WEBSRV WEBSRV_Init(): Starting webserver thread(s)
T5144 000:065.106   WEBSRV Webserver running on local port 19080
T5144 000:065.638   Looking for J-Link GUI Server exe at: D:\Keil_v5\ARM\Segger\JLinkGUIServer.exe
T5144 000:065.756   Looking for J-Link GUI Server exe at: D:\Program Files (x86)\SEGGER\JLink\JLinkGUIServer.exe
T5144 000:066.062   Forking J-Link GUI Server: D:\Program Files (x86)\SEGGER\JLink\JLinkGUIServer.exe
T5144 000:545.901   Failed to connect to J-Link GUI Server.
T5144 000:546.066 - 497.329ms returns "O.K."
T5144 000:546.101 JLINK_GetEmuCaps()
T5144 000:546.244 - 0.012ms returns 0xB9FF7BBF
T5144 000:546.269 JLINK_TIF_GetAvailable(...)
T5144 000:546.530 - 0.260ms 
T5144 000:546.545 JLINK_SetErrorOutHandler(...)
T5144 000:546.555 - 0.010ms 
T5144 000:546.648 JLINK_ExecCommand("ProjectFile = "F:\Embedded\OPS10_1\MDK-ARM\JLinkSettings.ini"", ...). 
T5144 000:573.310   Ref file found at: D:\Keil_v5\ARM\Segger\JLinkDevices.ref
T5144 000:573.479   REF file references invalid XML file: D:\Program Files (x86)\SEGGER\JLink\JLinkDevices.xml
T5144 000:575.142 - 28.492ms returns 0x00
T5144 000:577.569 JLINK_ExecCommand("Device = STM32H503RBTx", ...). 
T5144 000:579.581   Flash bank @ 0x08000000: SFL: Parsing sectorization info from ELF file
T5144 000:579.608     FlashDevice.SectorInfo[0]: .SectorSize = 0x00002000, .SectorStartAddr = 0x00000000
T5144 000:579.841   Flash bank @ 0x0C000000: SFL: Parsing sectorization info from ELF file
T5144 000:579.859     FlashDevice.SectorInfo[0]: .SectorSize = 0x00002000, .SectorStartAddr = 0x00000000
T5144 000:581.766   Device "STM32H503RB" selected.
T5144 000:582.278 - 4.680ms returns 0x00
T5144 000:582.302 JLINK_ExecCommand("DisableConnectionTimeout", ...). 
T5144 000:582.500   ERROR: Unknown command
T5144 000:582.526 - 0.211ms returns 0x01
T5144 000:582.540 JLINK_GetHardwareVersion()
T5144 000:582.551 - 0.011ms returns 97000
T5144 000:582.566 JLINK_GetDLLVersion()
T5144 000:582.576 - 0.010ms returns 87401
T5144 000:582.590 JLINK_GetOEMString(...)
T5144 000:582.601 JLINK_GetFirmwareString(...)
T5144 000:582.612 - 0.010ms 
T5144 000:587.146 JLINK_GetDLLVersion()
T5144 000:587.173 - 0.026ms returns 87401
T5144 000:587.186 JLINK_GetCompileDateTime()
T5144 000:587.197 - 0.011ms 
T5144 000:588.959 JLINK_GetFirmwareString(...)
T5144 000:588.984 - 0.024ms 
T5144 000:591.412 JLINK_GetHardwareVersion()
T5144 000:591.436 - 0.024ms returns 97000
T5144 000:594.905 JLINK_GetSN()
T5144 000:594.927 - 0.022ms returns 602712267
T5144 000:596.367 JLINK_GetOEMString(...)
T5144 000:599.632 JLINK_TIF_Select(JLINKARM_TIF_SWD)
T5144 000:601.007 - 1.685ms returns 0x00
T5144 000:601.034 JLINK_HasError()
T5144 000:601.112 JLINK_SetSpeed(5000)
T5144 000:601.320 - 0.210ms 
T5144 000:601.334 JLINK_GetId()
T5144 000:603.648   InitTarget() start
T5144 000:603.678    J-Link Script File: Executing InitTarget()
T5144 000:606.523   SWD selected. Executing JTAG -> SWD switching sequence.
T5144 000:610.367   DAP initialized successfully.
T5144 000:613.121   Enabling debug in 'Standby' & 'Stop' mode.
T5144 000:616.540   Enabling stop of IWDG & WWDG in debug mode.
T5144 000:618.636   InitTarget() end - Took 13.4ms
T5144 000:622.202   Found SW-DP with ID 0x6BA02477
T5144 000:626.679   DPIDR: 0x6BA02477
T5144 000:629.234   CoreSight SoC-400 or earlier
T5144 000:630.610   Scanning AP map to find all available APs
T5144 000:633.572   AP[2]: Stopped AP scan as end of AP map has been reached
T5144 000:634.935   AP[0]: APB-AP (IDR: 0x54770002, ADDR: 0x00000000)
T5144 000:636.908   AP[1]: AHB-AP (IDR: 0x84770001, ADDR: 0x01000000)
T5144 000:638.500   Iterating through AP map to find AHB-AP to use
T5144 000:640.172   AP[0]: Skipped. Not an AHB-AP
T5144 000:643.226   AP[1]: Core found
T5144 000:645.843   AP[1]: AHB-AP ROM base: 0xE00FE000
T5144 000:648.856   CPUID register: 0x410FD214. Implementer code: 0x41 (ARM)
T5144 000:650.308   Feature set: Mainline
T5144 000:652.929   Cache: No cache
T5144 000:659.280   Found Cortex-M33 r0p4, Little endian.
T5144 000:660.118   -- Max. mem block: 0x00010C40
T5144 000:663.589   
  ***** Warning: 
T5144 000:663.616   Cortex-M (ARMv8-M and later): The connected J-Link (S/N 602712267) uses an old firmware module that does not handle I/D-cache correctly. Proper debugging functionality cannot be guaranteed if cache is enabled
T5144 000:663.642   CPU_ReadMem(4 bytes @ 0xE000EDF0)
T5144 000:664.054   CPU_WriteMem(4 bytes @ 0xE000EDF0)
T5144 000:664.436   CPU_ReadMem(4 bytes @ 0xE0002000)
T5144 000:666.279   FPUnit: 8 code (BP) slots and 0 literal slots
T5144 000:666.306   CPU_ReadMem(4 bytes @ 0xE000EDFC)
T5144 000:666.690   CPU_ReadMem(4 bytes @ 0xE0001000)
T5144 000:666.943   CPU_ReadMem(4 bytes @ 0xE0001000)
T5144 000:667.222   CPU_ReadMem(4 bytes @ 0xE0001028)
T5144 000:667.500   CPU_ReadMem(4 bytes @ 0xE0001038)
T5144 000:667.771   CPU_ReadMem(4 bytes @ 0xE0001048)
T5144 000:668.048   CPU_ReadMem(4 bytes @ 0xE0001058)
T5144 000:668.322   CPU_WriteMem(4 bytes @ 0xE0001000)
T5144 000:668.626   CPU_ReadMem(4 bytes @ 0xE000ED88)
T5144 000:668.899   CPU_WriteMem(4 bytes @ 0xE000ED88)
T5144 000:669.193   CPU_ReadMem(4 bytes @ 0xE000ED88)
T5144 000:669.472   CPU_WriteMem(4 bytes @ 0xE000ED88)
T5144 000:669.773   CPU_ReadMem(4 bytes @ 0xE000EFB8)
T5144 000:671.675   Security extension: not implemented
T5144 000:673.090   CoreSight components:
T5144 000:674.787   ROMTbl[0] @ E00FE000
T5144 000:674.817   CPU_ReadMem(64 bytes @ 0xE00FE000)
T5144 000:675.369   CPU_ReadMem(32 bytes @ 0xE00FFFE0)
T5144 000:677.609   [0][0]: E00FF000 CID B105100D PID 000BB4C9 ROM Table
T5144 000:679.104   ROMTbl[1] @ E00FF000
T5144 000:679.134   CPU_ReadMem(64 bytes @ 0xE00FF000)
T5144 000:679.702   CPU_ReadMem(32 bytes @ 0xE000EFE0)
T5144 000:680.274   CPU_ReadMem(4 bytes @ 0xE000EFBC)
T5144 000:680.525   CPU_ReadMem(4 bytes @ 0xE000EFCC)
T5144 000:682.711   [1][0]: E000E000 CID B105900D PID 000BBD21 DEVARCH 47702A04 DEVTYPE 00 Cortex-M33
T5144 000:682.743   CPU_ReadMem(32 bytes @ 0xE0001FE0)
T5144 000:683.142   CPU_ReadMem(4 bytes @ 0xE0001FBC)
T5144 000:683.475   CPU_ReadMem(4 bytes @ 0xE0001FCC)
T5144 000:686.892   [1][1]: E0001000 CID B105900D PID 000BBD21 DEVARCH 47701A02 DEVTYPE 00 DWT
T5144 000:686.920   CPU_ReadMem(32 bytes @ 0xE0002FE0)
T5144 000:687.333   CPU_ReadMem(4 bytes @ 0xE0002FBC)
T5144 000:687.623   CPU_ReadMem(4 bytes @ 0xE0002FCC)
T5144 000:691.343   [1][2]: E0002000 CID B105900D PID 000BBD21 DEVARCH 47701A03 DEVTYPE 00 FPB
T5144 000:691.374   CPU_ReadMem(32 bytes @ 0xE0000FE0)
T5144 000:691.801   CPU_ReadMem(4 bytes @ 0xE0000FBC)
T5144 000:692.072   CPU_ReadMem(4 bytes @ 0xE0000FCC)
T5144 000:693.874   [1][3]: E0000000 CID B105900D PID 000BBD21 DEVARCH 47701A01 DEVTYPE 43 ITM
T5144 000:693.902   CPU_ReadMem(32 bytes @ 0xE0041FE0)
T5144 000:694.382   CPU_ReadMem(4 bytes @ 0xE0041FBC)
T5144 000:694.674   CPU_ReadMem(4 bytes @ 0xE0041FCC)
T5144 000:696.589   [1][5]: E0041000 CID B105900D PID 001BBD21 DEVARCH 47724A13 DEVTYPE 13 ETM
T5144 000:696.617   CPU_ReadMem(32 bytes @ 0xE0042FE0)
T5144 000:697.028   CPU_ReadMem(4 bytes @ 0xE0042FBC)
T5144 000:697.373   CPU_ReadMem(4 bytes @ 0xE0042FCC)
T5144 000:701.725   [1][6]: E0042000 CID B105900D PID 000BBD21 DEVARCH 47701A14 DEVTYPE 14 CSS600-CTI
T5144 000:701.766   CPU_ReadMem(32 bytes @ 0xE0040FE0)
T5144 000:702.199   CPU_ReadMem(4 bytes @ 0xE0040FBC)
T5144 000:702.502   CPU_ReadMem(4 bytes @ 0xE0040FCC)
T5144 000:704.486   [0][1]: E0040000 CID B105900D PID 000BBD21 DEVARCH 00000000 DEVTYPE 11 TPIU
T5144 000:704.770 - 103.435ms returns 0x6BA02477
T5144 000:704.796 JLINK_GetDLLVersion()
T5144 000:704.808 - 0.011ms returns 87401
T5144 000:704.860 JLINK_CORE_GetFound()
T5144 000:704.872 - 0.011ms returns 0xE0200FF
T5144 000:704.883 JLINK_GetDebugInfo(0x100 = JLINKARM_ROM_TABLE_ADDR_INDEX)
T5144 000:704.895   Value=0xE00FE000
T5144 000:704.910 - 0.027ms returns 0
T5144 000:706.483 JLINK_GetDebugInfo(0x100 = JLINKARM_ROM_TABLE_ADDR_INDEX)
T5144 000:706.509   Value=0xE00FE000
T5144 000:706.525 - 0.042ms returns 0
T5144 000:706.536 JLINK_GetDebugInfo(0x101 = JLINKARM_DEBUG_INFO_ETM_ADDR_INDEX)
T5144 000:706.547   Value=0xE0041000
T5144 000:706.563 - 0.026ms returns 0
T5144 000:706.575 JLINK_ReadMemEx(0xE0041FD0, 0x20 Bytes, Flags = 0x02000004)
T5144 000:706.869   CPU_ReadMem(32 bytes @ 0xE0041FD0)
T5144 000:707.270   Data:  04 00 00 00 00 00 00 00 00 00 00 00 00 00 00 00 ...
T5144 000:707.289 - 0.714ms returns 32 (0x20)
T5144 000:707.302 JLINK_ReadMemU32(0xE0041FBC, 0x1 Items)
T5144 000:707.317   CPU_ReadMem(4 bytes @ 0xE0041FBC)
T5144 000:707.622   Data:  13 4A 72 47
T5144 000:707.638 - 0.336ms returns 1 (0x1)
T5144 000:707.650 JLINK_GetDebugInfo(0x102 = JLINKARM_DEBUG_INFO_MTB_ADDR_INDEX)
T5144 000:707.661   Value=0x00000000
T5144 000:707.675 - 0.025ms returns 0
T5144 000:707.686 JLINK_GetDebugInfo(0x103 = JLINKARM_DEBUG_INFO_TPIU_ADDR_INDEX)
T5144 000:707.696   Value=0xE0040000
T5144 000:707.712 - 0.025ms returns 0
T5144 000:707.723 JLINK_GetDebugInfo(0x104 = JLINKARM_DEBUG_INFO_ITM_ADDR_INDEX)
T5144 000:707.733   Value=0xE0000000
T5144 000:707.748 - 0.025ms returns 0
T5144 000:707.758 JLINK_GetDebugInfo(0x105 = JLINKARM_DEBUG_INFO_DWT_ADDR_INDEX)
T5144 000:707.769   Value=0xE0001000
T5144 000:707.784 - 0.025ms returns 0
T5144 000:707.795 JLINK_GetDebugInfo(0x106 = JLINKARM_DEBUG_INFO_FPB_ADDR_INDEX)
T5144 000:707.804   Value=0xE0002000
T5144 000:707.819 - 0.024ms returns 0
T5144 000:707.829 JLINK_GetDebugInfo(0x107 = JLINKARM_DEBUG_INFO_NVIC_ADDR_INDEX)
T5144 000:707.840   Value=0xE000E000
T5144 000:707.854 - 0.024ms returns 0
T5144 000:707.865 JLINK_GetDebugInfo(0x10C = JLINKARM_DEBUG_INFO_DBG_ADDR_INDEX)
T5144 000:707.875   Value=0xE000EDF0
T5144 000:707.891 - 0.025ms returns 0
T5144 000:707.901 JLINK_GetDebugInfo(0x01 = Unknown)
T5144 000:707.911   Value=0x00000001
T5144 000:707.925 - 0.024ms returns 0
T5144 000:707.936 JLINK_ReadMemU32(0xE000ED00, 0x1 Items)
T5144 000:707.947   CPU_ReadMem(4 bytes @ 0xE000ED00)
T5144 000:708.251   Data:  14 D2 0F 41
T5144 000:708.267   Debug reg: CPUID
T5144 000:708.281 - 0.345ms returns 1 (0x1)
T5144 000:708.293 JLINK_GetDebugInfo(0x10F = JLINKARM_DEBUG_INFO_HAS_CORTEX_M_SECURITY_EXT_INDEX)
T5144 000:708.303   Value=0x00000000
T5144 000:708.318 - 0.025ms returns 0
T5144 000:708.329 JLINK_ReadMemEx(0xE000ED74, 0x4 Bytes, Flags = 0x02000004)
T5144 000:708.341   CPU_ReadMem(4 bytes @ 0xE000ED74)
T5144 000:708.550   Data:  00 00 00 00
T5144 000:708.566 - 0.237ms returns 4 (0x4)
T5144 000:710.283 JLINK_HasError()
T5144 000:710.305 JLINK_SetResetType(JLINKARM_CM3_RESET_TYPE_NORMAL)
T5144 000:710.317 - 0.011ms returns JLINKARM_CM3_RESET_TYPE_NORMAL
T5144 000:710.328 JLINK_Reset()
T5144 000:710.343   JLINK_GetResetTypeDesc
T5144 000:710.353   - 0.009ms 
T5144 000:716.965   Reset type: NORMAL (https://wiki.segger.com/J-Link_Reset_Strategies)
T5144 000:716.999   CPU is running
T5144 000:717.018   CPU_WriteMem(4 bytes @ 0xE000EDF0)
T5144 000:717.324   CPU_ReadMem(4 bytes @ 0xE000ED44)
T5144 000:717.629   CPU is running
T5144 000:717.647   CPU_WriteMem(4 bytes @ 0xE000EDFC)
T5144 000:719.634   Reset: Halt core after reset via DEMCR.VC_CORERESET.
T5144 000:724.295   Reset: Reset device via AIRCR.SYSRESETREQ.
T5144 000:724.332   CPU is running
T5144 000:724.351   CPU_WriteMem(4 bytes @ 0xE000ED0C)
T5144 000:776.660   CPU_ReadMem(4 bytes @ 0xE000EDF0)
T5144 000:776.958   CPU_ReadMem(4 bytes @ 0xE000EDF0)
T5144 000:779.595   CPU_WriteMem(4 bytes @ 0xE000EDFC)
T5144 000:786.014   CPU_ReadMem(4 bytes @ 0xE000EDF0)
T5144 000:788.314   CPU_ReadMem(4 bytes @ 0xE000EE08)
T5144 000:788.627   CPU_WriteMem(4 bytes @ 0xE0002000)
T5144 000:788.916   CPU_ReadMem(4 bytes @ 0xE000EDFC)
T5144 000:789.194   CPU_ReadMem(4 bytes @ 0xE0001000)
T5144 000:789.497   CPU_ReadMem(4 bytes @ 0xE000EE08)
T5144 000:789.778 - 79.450ms 
T5144 000:789.816 JLINK_Halt()
T5144 000:789.827 - 0.010ms returns 0x00
T5144 000:789.840 JLINK_ReadMemU32(0xE000EDF0, 0x1 Items)
T5144 000:789.855   CPU_ReadMem(4 bytes @ 0xE000EDF0)
T5144 000:790.145   Data:  03 00 03 00
T5144 000:790.162   Debug reg: DHCSR
T5144 000:790.178 - 0.337ms returns 1 (0x1)
T5144 000:790.192 JLINK_WriteU32(0xE000EDF0, 0xA05F0003)
T5144 000:790.203   Debug reg: DHCSR
T5144 000:790.513   CPU_WriteMem(4 bytes @ 0xE000EDF0)
T5144 000:790.793 - 0.600ms returns 0 (0x00000000)
T5144 000:790.809 JLINK_WriteU32(0xE000EDFC, 0x01000000)
T5144 000:790.819   Debug reg: DEMCR
T5144 000:790.836   CPU_WriteMem(4 bytes @ 0xE000EDFC)
T5144 000:791.107 - 0.298ms returns 0 (0x00000000)
T5144 000:797.669 JLINK_GetHWStatus(...)
T5144 000:797.868 - 0.198ms returns 0
T5144 000:804.729 JLINK_GetNumBPUnits(Type = 0xFFFFFF00)
T5144 000:804.756 - 0.027ms returns 0x08
T5144 000:804.768 JLINK_GetNumBPUnits(Type = 0xF0)
T5144 000:804.781 - 0.011ms returns 0x2000
T5144 000:804.791 JLINK_GetNumWPUnits()
T5144 000:804.801 - 0.009ms returns 4
T5144 000:810.064 JLINK_GetSpeed()
T5144 000:810.093 - 0.028ms returns 4000
T5144 000:814.328 JLINK_ReadMemU32(0xE000E004, 0x1 Items)
T5144 000:814.366   CPU_ReadMem(4 bytes @ 0xE000E004)
T5144 000:814.695   Data:  04 00 00 00
T5144 000:814.723 - 0.395ms returns 1 (0x1)
T5144 000:814.738 JLINK_ReadMemU32(0xE000E004, 0x1 Items)
T5144 000:814.752   CPU_ReadMem(4 bytes @ 0xE000E004)
T5144 000:815.033   Data:  04 00 00 00
T5144 000:815.050 - 0.312ms returns 1 (0x1)
T5144 000:815.063 JLINK_WriteMemEx(0xE0001000, 0x0000001C Bytes, Flags = 0x02000004)
T5144 000:815.074   Data:  01 00 00 00 00 00 00 00 00 00 00 00 00 00 00 00 ...
T5144 000:815.094   CPU_WriteMem(28 bytes @ 0xE0001000)
T5144 000:815.398 - 0.334ms returns 0x1C
T5144 000:815.418 JLINK_Halt()
T5144 000:815.430 - 0.011ms returns 0x00
T5144 000:815.441 JLINK_IsHalted()
T5144 000:815.453 - 0.011ms returns TRUE
T5144 000:819.134 JLINK_WriteMem(0x20000000, 0x2F4 Bytes, ...)
T5144 000:819.151   Data:  00 BE 0A E0 0D 78 2D 06 68 40 08 24 40 00 00 D3 ...
T5144 000:819.642   CPU_WriteMem(756 bytes @ 0x20000000)
T5144 000:822.401 - 3.266ms returns 0x2F4
T5144 000:822.458 JLINK_HasError()
T5144 000:822.469 JLINK_WriteReg(R0, 0x08000000)
T5144 000:822.481   CPU_ReadMem(4 bytes @ 0xE000EE08)
T5144 000:822.770 - 0.301ms returns 0
T5144 000:822.783 JLINK_WriteReg(R1, 0x007A1200)
T5144 000:822.794 - 0.011ms returns 0
T5144 000:822.805 JLINK_WriteReg(R2, 0x00000001)
T5144 000:822.816 - 0.011ms returns 0
T5144 000:822.828 JLINK_WriteReg(R3, 0x00000000)
T5144 000:822.838 - 0.010ms returns 0
T5144 000:822.848 JLINK_WriteReg(R4, 0x00000000)
T5144 000:822.859 - 0.010ms returns 0
T5144 000:822.870 JLINK_WriteReg(R5, 0x00000000)
T5144 000:822.881 - 0.011ms returns 0
T5144 000:822.892 JLINK_WriteReg(R6, 0x00000000)
T5144 000:822.903 - 0.010ms returns 0
T5144 000:822.913 JLINK_WriteReg(R7, 0x00000000)
T5144 000:822.923 - 0.010ms returns 0
T5144 000:823.069 JLINK_WriteReg(R8, 0x00000000)
T5144 000:823.095 - 0.159ms returns 0
T5144 000:823.108 JLINK_WriteReg(R9, 0x200002F0)
T5144 000:823.119 - 0.011ms returns 0
T5144 000:823.130 JLINK_WriteReg(R10, 0x00000000)
T5144 000:823.141 - 0.010ms returns 0
T5144 000:823.152 JLINK_WriteReg(R11, 0x00000000)
T5144 000:823.163 - 0.011ms returns 0
T5144 000:823.173 JLINK_WriteReg(R12, 0x00000000)
T5144 000:823.184 - 0.011ms returns 0
T5144 000:823.199 JLINK_WriteReg(R13 (SP), 0x20008000)
T5144 000:823.249 - 0.050ms returns 0
T5144 000:823.263 JLINK_WriteReg(R14, 0x20000001)
T5144 000:823.275 - 0.011ms returns 0
T5144 000:823.288 JLINK_WriteReg(R15 (PC), 0x20000110)
T5144 000:823.301 - 0.012ms returns 0
T5144 000:823.312 JLINK_WriteReg(XPSR, 0x01000000)
T5144 000:823.322 - 0.010ms returns 0
T5144 000:823.333 JLINK_WriteReg(MSP, 0x20008000)
T5144 000:823.344 - 0.011ms returns 0
T5144 000:823.355 JLINK_WriteReg(PSP, 0x20008000)
T5144 000:823.365 - 0.010ms returns 0
T5144 000:823.376 JLINK_WriteReg(CFBP, 0x00000000)
T5144 000:823.387 - 0.011ms returns 0
T5144 000:823.398 JLINK_SetBPEx(Addr = 0x20000000, Type = 0xFFFFFFF2)
T5144 000:823.410 - 0.012ms returns 0x00000001
T5144 000:823.421 JLINK_Go()
T5144 000:823.434   CPU_WriteMem(4 bytes @ 0xE0002000)
T5144 000:823.784   CPU_ReadMem(4 bytes @ 0xE0001000)
T5144 000:824.121   CPU_WriteMem(4 bytes @ 0xE0002008)
T5144 000:824.148   CPU_WriteMem(4 bytes @ 0xE000200C)
T5144 000:824.165   CPU_WriteMem(4 bytes @ 0xE0002010)
T5144 000:824.181   CPU_WriteMem(4 bytes @ 0xE0002014)
T5144 000:824.197   CPU_WriteMem(4 bytes @ 0xE0002018)
T5144 000:824.213   CPU_WriteMem(4 bytes @ 0xE000201C)
T5144 000:824.229   CPU_WriteMem(4 bytes @ 0xE0002020)
T5144 000:824.244   CPU_WriteMem(4 bytes @ 0xE0002024)
T5144 000:825.530   CPU_WriteMem(4 bytes @ 0xE0001004)
T5144 000:829.711   Memory map 'after startup completion point' is active
T5144 000:829.742 - 6.320ms 
T5144 000:829.755 JLINK_IsHalted()
T5144 000:831.721 - 1.965ms returns TRUE
T5144 000:831.741 JLINK_ReadReg(R15 (PC))
T5144 000:831.756   CPU_ReadMem(4 bytes @ 0xE000EE08)
T5144 000:832.042 - 0.301ms returns 0x20000000
T5144 000:832.056 JLINK_ClrBPEx(BPHandle = 0x00000001)
T5144 000:832.072 - 0.015ms returns 0x00
T5144 000:832.083 JLINK_ReadReg(R0)
T5144 000:832.095 - 0.011ms returns 0x00000000
T5144 000:832.488 JLINK_HasError()
T5144 000:832.506 JLINK_WriteReg(R0, 0x08000000)
T5144 000:832.519 - 0.013ms returns 0
T5144 000:832.530 JLINK_WriteReg(R1, 0x00002000)
T5144 000:832.540 - 0.010ms returns 0
T5144 000:832.550 JLINK_WriteReg(R2, 0x000000FF)
T5144 000:832.560 - 0.010ms returns 0
T5144 000:832.570 JLINK_WriteReg(R3, 0x00000000)
T5144 000:832.580 - 0.009ms returns 0
T5144 000:832.590 JLINK_WriteReg(R4, 0x00000000)
T5144 000:832.600 - 0.010ms returns 0
T5144 000:832.610 JLINK_WriteReg(R5, 0x00000000)
T5144 000:832.624 - 0.014ms returns 0
T5144 000:832.635 JLINK_WriteReg(R6, 0x00000000)
T5144 000:832.645 - 0.010ms returns 0
T5144 000:832.655 JLINK_WriteReg(R7, 0x00000000)
T5144 000:832.664 - 0.009ms returns 0
T5144 000:832.674 JLINK_WriteReg(R8, 0x00000000)
T5144 000:832.684 - 0.010ms returns 0
T5144 000:832.694 JLINK_WriteReg(R9, 0x200002F0)
T5144 000:832.704 - 0.010ms returns 0
T5144 000:832.714 JLINK_WriteReg(R10, 0x00000000)
T5144 000:832.724 - 0.009ms returns 0
T5144 000:832.734 JLINK_WriteReg(R11, 0x00000000)
T5144 000:832.744 - 0.010ms returns 0
T5144 000:832.754 JLINK_WriteReg(R12, 0x00000000)
T5144 000:832.764 - 0.010ms returns 0
T5144 000:832.773 JLINK_WriteReg(R13 (SP), 0x20008000)
T5144 000:832.783 - 0.009ms returns 0
T5144 000:832.793 JLINK_WriteReg(R14, 0x20000001)
T5144 000:832.802 - 0.009ms returns 0
T5144 000:832.812 JLINK_WriteReg(R15 (PC), 0x20000020)
T5144 000:832.821 - 0.009ms returns 0
T5144 000:832.831 JLINK_WriteReg(XPSR, 0x01000000)
T5144 000:832.840 - 0.009ms returns 0
T5144 000:832.850 JLINK_WriteReg(MSP, 0x20008000)
T5144 000:832.860 - 0.010ms returns 0
T5144 000:832.870 JLINK_WriteReg(PSP, 0x20008000)
T5144 000:832.880 - 0.009ms returns 0
T5144 000:832.890 JLINK_WriteReg(CFBP, 0x00000000)
T5144 000:832.900 - 0.009ms returns 0
T5144 000:832.910 JLINK_SetBPEx(Addr = 0x20000000, Type = 0xFFFFFFF2)
T5144 000:832.921 - 0.010ms returns 0x00000002
T5144 000:832.931 JLINK_Go()
T5144 000:832.943   CPU_WriteMem(4 bytes @ 0xE0002000)
T5144 000:833.246   CPU_ReadMem(4 bytes @ 0xE0001000)
T5144 000:835.345 - 2.414ms 
T5144 000:835.358 JLINK_IsHalted()
T5144 000:837.543 - 2.184ms returns TRUE
T5144 000:837.564 JLINK_ReadReg(R15 (PC))
T5144 000:837.578   CPU_ReadMem(4 bytes @ 0xE000EE08)
T5144 000:837.901 - 0.337ms returns 0x20000000
T5144 000:837.913 JLINK_ClrBPEx(BPHandle = 0x00000002)
T5144 000:837.923 - 0.010ms returns 0x00
T5144 000:837.934 JLINK_ReadReg(R0)
T5144 000:837.943 - 0.009ms returns 0x00000001
T5144 000:837.954 JLINK_HasError()
T5144 000:837.964 JLINK_WriteReg(R0, 0x08000000)
T5144 000:837.975 - 0.010ms returns 0
T5144 000:837.986 JLINK_WriteReg(R1, 0x00002000)
T5144 000:837.996 - 0.010ms returns 0
T5144 000:838.007 JLINK_WriteReg(R2, 0x000000FF)
T5144 000:838.018 - 0.010ms returns 0
T5144 000:838.029 JLINK_WriteReg(R3, 0x00000000)
T5144 000:838.040 - 0.011ms returns 0
T5144 000:838.050 JLINK_WriteReg(R4, 0x00000000)
T5144 000:838.061 - 0.010ms returns 0
T5144 000:838.072 JLINK_WriteReg(R5, 0x00000000)
T5144 000:838.083 - 0.010ms returns 0
T5144 000:838.093 JLINK_WriteReg(R6, 0x00000000)
T5144 000:838.104 - 0.011ms returns 0
T5144 000:838.114 JLINK_WriteReg(R7, 0x00000000)
T5144 000:838.125 - 0.011ms returns 0
T5144 000:838.136 JLINK_WriteReg(R8, 0x00000000)
T5144 000:838.147 - 0.011ms returns 0
T5144 000:838.157 JLINK_WriteReg(R9, 0x200002F0)
T5144 000:838.168 - 0.010ms returns 0
T5144 000:838.179 JLINK_WriteReg(R10, 0x00000000)
T5144 000:838.189 - 0.010ms returns 0
T5144 000:838.201 JLINK_WriteReg(R11, 0x00000000)
T5144 000:838.211 - 0.010ms returns 0
T5144 000:838.221 JLINK_WriteReg(R12, 0x00000000)
T5144 000:838.232 - 0.011ms returns 0
T5144 000:838.243 JLINK_WriteReg(R13 (SP), 0x20008000)
T5144 000:838.254 - 0.011ms returns 0
T5144 000:838.265 JLINK_WriteReg(R14, 0x20000001)
T5144 000:838.276 - 0.011ms returns 0
T5144 000:838.288 JLINK_WriteReg(R15 (PC), 0x2000006C)
T5144 000:838.298 - 0.010ms returns 0
T5144 000:838.309 JLINK_WriteReg(XPSR, 0x01000000)
T5144 000:838.320 - 0.011ms returns 0
T5144 000:838.331 JLINK_WriteReg(MSP, 0x20008000)
T5144 000:838.341 - 0.010ms returns 0
T5144 000:838.351 JLINK_WriteReg(PSP, 0x20008000)
T5144 000:838.362 - 0.010ms returns 0
T5144 000:838.372 JLINK_WriteReg(CFBP, 0x00000000)
T5144 000:838.382 - 0.009ms returns 0
T5144 000:838.392 JLINK_SetBPEx(Addr = 0x20000000, Type = 0xFFFFFFF2)
T5144 000:838.402 - 0.010ms returns 0x00000003
T5144 000:838.412 JLINK_Go()
T5144 000:838.423   CPU_WriteMem(4 bytes @ 0xE0002000)
T5144 000:838.751   CPU_ReadMem(4 bytes @ 0xE0001000)
T5144 000:841.060 - 2.645ms 
T5144 000:841.220 JLINK_IsHalted()
T5144 000:841.623 - 0.403ms returns FALSE
T5144 000:841.644 JLINK_HasError()
T5144 000:854.968 JLINK_IsHalted()
T5144 000:857.106 - 2.137ms returns TRUE
T5144 000:857.133 JLINK_ReadReg(R15 (PC))
T5144 000:857.149   CPU_ReadMem(4 bytes @ 0xE000EE08)
T5144 000:857.475 - 0.341ms returns 0x20000000
T5144 000:857.487 JLINK_ClrBPEx(BPHandle = 0x00000003)
T5144 000:857.497 - 0.010ms returns 0x00
T5144 000:857.508 JLINK_ReadReg(R0)
T5144 000:857.518 - 0.010ms returns 0x00000000
T5144 000:857.836 JLINK_HasError()
T5144 000:857.856 JLINK_WriteReg(R0, 0x08002000)
T5144 000:857.869 - 0.012ms returns 0
T5144 000:857.879 JLINK_WriteReg(R1, 0x00002000)
T5144 000:857.889 - 0.009ms returns 0
T5144 000:857.899 JLINK_WriteReg(R2, 0x000000FF)
T5144 000:857.909 - 0.009ms returns 0
T5144 000:857.919 JLINK_WriteReg(R3, 0x00000000)
T5144 000:857.929 - 0.009ms returns 0
T5144 000:857.938 JLINK_WriteReg(R4, 0x00000000)
T5144 000:857.948 - 0.009ms returns 0
T5144 000:857.958 JLINK_WriteReg(R5, 0x00000000)
T5144 000:857.968 - 0.010ms returns 0
T5144 000:857.979 JLINK_WriteReg(R6, 0x00000000)
T5144 000:857.988 - 0.009ms returns 0
T5144 000:857.998 JLINK_WriteReg(R7, 0x00000000)
T5144 000:858.009 - 0.010ms returns 0
T5144 000:858.020 JLINK_WriteReg(R8, 0x00000000)
T5144 000:858.031 - 0.011ms returns 0
T5144 000:858.042 JLINK_WriteReg(R9, 0x200002F0)
T5144 000:858.053 - 0.010ms returns 0
T5144 000:858.064 JLINK_WriteReg(R10, 0x00000000)
T5144 000:858.075 - 0.010ms returns 0
T5144 000:858.085 JLINK_WriteReg(R11, 0x00000000)
T5144 000:858.096 - 0.010ms returns 0
T5144 000:858.112 JLINK_WriteReg(R12, 0x00000000)
T5144 000:858.125 - 0.013ms returns 0
T5144 000:858.136 JLINK_WriteReg(R13 (SP), 0x20008000)
T5144 000:858.148 - 0.011ms returns 0
T5144 000:858.159 JLINK_WriteReg(R14, 0x20000001)
T5144 000:858.170 - 0.010ms returns 0
T5144 000:858.181 JLINK_WriteReg(R15 (PC), 0x20000020)
T5144 000:858.197 - 0.015ms returns 0
T5144 000:858.208 JLINK_WriteReg(XPSR, 0x01000000)
T5144 000:858.218 - 0.010ms returns 0
T5144 000:858.229 JLINK_WriteReg(MSP, 0x20008000)
T5144 000:858.240 - 0.010ms returns 0
T5144 000:858.251 JLINK_WriteReg(PSP, 0x20008000)
T5144 000:858.262 - 0.011ms returns 0
T5144 000:858.273 JLINK_WriteReg(CFBP, 0x00000000)
T5144 000:858.284 - 0.010ms returns 0
T5144 000:858.295 JLINK_SetBPEx(Addr = 0x20000000, Type = 0xFFFFFFF2)
T5144 000:858.306 - 0.011ms returns 0x00000004
T5144 000:858.318 JLINK_Go()
T5144 000:858.331   CPU_WriteMem(4 bytes @ 0xE0002000)
T5144 000:858.649   CPU_ReadMem(4 bytes @ 0xE0001000)
T5144 000:860.926 - 2.607ms 
T5144 000:860.943 JLINK_IsHalted()
T5144 000:863.030 - 2.085ms returns TRUE
T5144 000:863.060 JLINK_ReadReg(R15 (PC))
T5144 000:863.073   CPU_ReadMem(4 bytes @ 0xE000EE08)
T5144 000:863.592 - 0.532ms returns 0x20000000
T5144 000:863.618 JLINK_ClrBPEx(BPHandle = 0x00000004)
T5144 000:863.630 - 0.012ms returns 0x00
T5144 000:863.641 JLINK_ReadReg(R0)
T5144 000:863.652 - 0.011ms returns 0x00000001
T5144 000:863.663 JLINK_HasError()
T5144 000:863.673 JLINK_WriteReg(R0, 0x08002000)
T5144 000:863.683 - 0.010ms returns 0
T5144 000:863.693 JLINK_WriteReg(R1, 0x00002000)
T5144 000:863.703 - 0.009ms returns 0
T5144 000:863.713 JLINK_WriteReg(R2, 0x000000FF)
T5144 000:863.723 - 0.009ms returns 0
T5144 000:863.733 JLINK_WriteReg(R3, 0x00000000)
T5144 000:863.742 - 0.009ms returns 0
T5144 000:863.752 JLINK_WriteReg(R4, 0x00000000)
T5144 000:863.762 - 0.009ms returns 0
T5144 000:863.772 JLINK_WriteReg(R5, 0x00000000)
T5144 000:863.782 - 0.009ms returns 0
T5144 000:863.792 JLINK_WriteReg(R6, 0x00000000)
T5144 000:863.801 - 0.009ms returns 0
T5144 000:863.811 JLINK_WriteReg(R7, 0x00000000)
T5144 000:863.821 - 0.009ms returns 0
T5144 000:863.831 JLINK_WriteReg(R8, 0x00000000)
T5144 000:863.841 - 0.009ms returns 0
T5144 000:863.851 JLINK_WriteReg(R9, 0x200002F0)
T5144 000:863.860 - 0.009ms returns 0
T5144 000:863.870 JLINK_WriteReg(R10, 0x00000000)
T5144 000:863.880 - 0.009ms returns 0
T5144 000:863.890 JLINK_WriteReg(R11, 0x00000000)
T5144 000:863.900 - 0.009ms returns 0
T5144 000:863.910 JLINK_WriteReg(R12, 0x00000000)
T5144 000:863.920 - 0.009ms returns 0
T5144 000:863.930 JLINK_WriteReg(R13 (SP), 0x20008000)
T5144 000:863.940 - 0.010ms returns 0
T5144 000:863.950 JLINK_WriteReg(R14, 0x20000001)
T5144 000:863.960 - 0.009ms returns 0
T5144 000:863.970 JLINK_WriteReg(R15 (PC), 0x2000006C)
T5144 000:863.980 - 0.010ms returns 0
T5144 000:863.990 JLINK_WriteReg(XPSR, 0x01000000)
T5144 000:864.000 - 0.010ms returns 0
T5144 000:864.010 JLINK_WriteReg(MSP, 0x20008000)
T5144 000:864.020 - 0.010ms returns 0
T5144 000:864.031 JLINK_WriteReg(PSP, 0x20008000)
T5144 000:864.041 - 0.009ms returns 0
T5144 000:864.051 JLINK_WriteReg(CFBP, 0x00000000)
T5144 000:864.061 - 0.010ms returns 0
T5144 000:864.071 JLINK_SetBPEx(Addr = 0x20000000, Type = 0xFFFFFFF2)
T5144 000:864.081 - 0.010ms returns 0x00000005
T5144 000:864.092 JLINK_Go()
T5144 000:864.103   CPU_WriteMem(4 bytes @ 0xE0002000)
T5144 000:864.400   CPU_ReadMem(4 bytes @ 0xE0001000)
T5144 000:866.709 - 2.616ms 
T5144 000:866.729 JLINK_IsHalted()
T5144 000:867.071 - 0.341ms returns FALSE
T5144 000:867.121 JLINK_HasError()
T5144 000:869.075 JLINK_IsHalted()
T5144 000:871.222 - 2.147ms returns TRUE
T5144 000:871.246 JLINK_ReadReg(R15 (PC))
T5144 000:871.262   CPU_ReadMem(4 bytes @ 0xE000EE08)
T5144 000:871.550 - 0.304ms returns 0x20000000
T5144 000:871.565 JLINK_ClrBPEx(BPHandle = 0x00000005)
T5144 000:871.576 - 0.012ms returns 0x00
T5144 000:871.588 JLINK_ReadReg(R0)
T5144 000:871.600 - 0.011ms returns 0x00000000
T5144 000:871.988 JLINK_HasError()
T5144 000:872.015 JLINK_WriteReg(R0, 0x08004000)
T5144 000:872.030 - 0.014ms returns 0
T5144 000:872.042 JLINK_WriteReg(R1, 0x00002000)
T5144 000:872.054 - 0.011ms returns 0
T5144 000:872.066 JLINK_WriteReg(R2, 0x000000FF)
T5144 000:872.077 - 0.012ms returns 0
T5144 000:872.089 JLINK_WriteReg(R3, 0x00000000)
T5144 000:872.100 - 0.011ms returns 0
T5144 000:872.112 JLINK_WriteReg(R4, 0x00000000)
T5144 000:872.123 - 0.011ms returns 0
T5144 000:872.134 JLINK_WriteReg(R5, 0x00000000)
T5144 000:872.145 - 0.011ms returns 0
T5144 000:872.157 JLINK_WriteReg(R6, 0x00000000)
T5144 000:872.168 - 0.011ms returns 0
T5144 000:872.179 JLINK_WriteReg(R7, 0x00000000)
T5144 000:872.190 - 0.010ms returns 0
T5144 000:872.201 JLINK_WriteReg(R8, 0x00000000)
T5144 000:872.212 - 0.011ms returns 0
T5144 000:872.223 JLINK_WriteReg(R9, 0x200002F0)
T5144 000:872.234 - 0.011ms returns 0
T5144 000:872.245 JLINK_WriteReg(R10, 0x00000000)
T5144 000:872.256 - 0.010ms returns 0
T5144 000:872.267 JLINK_WriteReg(R11, 0x00000000)
T5144 000:872.283 - 0.016ms returns 0
T5144 000:872.294 JLINK_WriteReg(R12, 0x00000000)
T5144 000:872.309 - 0.014ms returns 0
T5144 000:872.320 JLINK_WriteReg(R13 (SP), 0x20008000)
T5144 000:872.332 - 0.011ms returns 0
T5144 000:872.342 JLINK_WriteReg(R14, 0x20000001)
T5144 000:872.354 - 0.011ms returns 0
T5144 000:872.363 JLINK_WriteReg(R15 (PC), 0x20000020)
T5144 000:872.372 - 0.009ms returns 0
T5144 000:872.382 JLINK_WriteReg(XPSR, 0x01000000)
T5144 000:872.392 - 0.009ms returns 0
T5144 000:872.406 JLINK_WriteReg(MSP, 0x20008000)
T5144 000:872.416 - 0.010ms returns 0
T5144 000:872.425 JLINK_WriteReg(PSP, 0x20008000)
T5144 000:872.435 - 0.009ms returns 0
T5144 000:872.445 JLINK_WriteReg(CFBP, 0x00000000)
T5144 000:872.455 - 0.009ms returns 0
T5144 000:872.465 JLINK_SetBPEx(Addr = 0x20000000, Type = 0xFFFFFFF2)
T5144 000:872.475 - 0.010ms returns 0x00000006
T5144 000:872.485 JLINK_Go()
T5144 000:872.497   CPU_WriteMem(4 bytes @ 0xE0002000)
T5144 000:872.832   CPU_ReadMem(4 bytes @ 0xE0001000)
T5144 000:875.107 - 2.622ms 
T5144 000:875.135 JLINK_IsHalted()
T5144 000:877.250 - 2.114ms returns TRUE
T5144 000:877.273 JLINK_ReadReg(R15 (PC))
T5144 000:877.287   CPU_ReadMem(4 bytes @ 0xE000EE08)
T5144 000:877.627 - 0.353ms returns 0x20000000
T5144 000:877.642 JLINK_ClrBPEx(BPHandle = 0x00000006)
T5144 000:877.654 - 0.012ms returns 0x00
T5144 000:877.665 JLINK_ReadReg(R0)
T5144 000:877.677 - 0.011ms returns 0x00000001
T5144 000:877.689 JLINK_HasError()
T5144 000:877.701 JLINK_WriteReg(R0, 0x08004000)
T5144 000:877.712 - 0.011ms returns 0
T5144 000:877.724 JLINK_WriteReg(R1, 0x00002000)
T5144 000:877.735 - 0.011ms returns 0
T5144 000:877.746 JLINK_WriteReg(R2, 0x000000FF)
T5144 000:877.757 - 0.010ms returns 0
T5144 000:877.768 JLINK_WriteReg(R3, 0x00000000)
T5144 000:877.778 - 0.010ms returns 0
T5144 000:877.788 JLINK_WriteReg(R4, 0x00000000)
T5144 000:877.799 - 0.011ms returns 0
T5144 000:877.811 JLINK_WriteReg(R5, 0x00000000)
T5144 000:877.821 - 0.010ms returns 0
T5144 000:877.832 JLINK_WriteReg(R6, 0x00000000)
T5144 000:877.843 - 0.011ms returns 0
T5144 000:877.854 JLINK_WriteReg(R7, 0x00000000)
T5144 000:877.866 - 0.012ms returns 0
T5144 000:877.877 JLINK_WriteReg(R8, 0x00000000)
T5144 000:877.892 - 0.014ms returns 0
T5144 000:877.904 JLINK_WriteReg(R9, 0x200002F0)
T5144 000:877.914 - 0.010ms returns 0
T5144 000:877.924 JLINK_WriteReg(R10, 0x00000000)
T5144 000:877.936 - 0.011ms returns 0
T5144 000:877.946 JLINK_WriteReg(R11, 0x00000000)
T5144 000:877.957 - 0.010ms returns 0
T5144 000:877.968 JLINK_WriteReg(R12, 0x00000000)
T5144 000:877.979 - 0.011ms returns 0
T5144 000:877.990 JLINK_WriteReg(R13 (SP), 0x20008000)
T5144 000:878.001 - 0.011ms returns 0
T5144 000:878.013 JLINK_WriteReg(R14, 0x20000001)
T5144 000:878.023 - 0.010ms returns 0
T5144 000:878.034 JLINK_WriteReg(R15 (PC), 0x2000006C)
T5144 000:878.046 - 0.011ms returns 0
T5144 000:878.058 JLINK_WriteReg(XPSR, 0x01000000)
T5144 000:878.072 - 0.013ms returns 0
T5144 000:878.083 JLINK_WriteReg(MSP, 0x20008000)
T5144 000:878.147 - 0.062ms returns 0
T5144 000:878.161 JLINK_WriteReg(PSP, 0x20008000)
T5144 000:878.173 - 0.012ms returns 0
T5144 000:878.185 JLINK_WriteReg(CFBP, 0x00000000)
T5144 000:878.200 - 0.015ms returns 0
T5144 000:878.213 JLINK_SetBPEx(Addr = 0x20000000, Type = 0xFFFFFFF2)
T5144 000:878.227 - 0.013ms returns 0x00000007
T5144 000:878.238 JLINK_Go()
T5144 000:878.254   CPU_WriteMem(4 bytes @ 0xE0002000)
T5144 000:878.635   CPU_ReadMem(4 bytes @ 0xE0001000)
T5144 000:880.872 - 2.632ms 
T5144 000:880.888 JLINK_IsHalted()
T5144 000:881.195 - 0.306ms returns FALSE
T5144 000:881.208 JLINK_HasError()
T5144 000:883.983 JLINK_IsHalted()
T5144 000:886.106 - 2.122ms returns TRUE
T5144 000:886.131 JLINK_ReadReg(R15 (PC))
T5144 000:886.146   CPU_ReadMem(4 bytes @ 0xE000EE08)
T5144 000:886.479 - 0.347ms returns 0x20000000
T5144 000:886.495 JLINK_ClrBPEx(BPHandle = 0x00000007)
T5144 000:886.506 - 0.011ms returns 0x00
T5144 000:886.521 JLINK_ReadReg(R0)
T5144 000:886.534 - 0.012ms returns 0x00000000
T5144 000:886.957 JLINK_HasError()
T5144 000:886.976 JLINK_WriteReg(R0, 0x08006000)
T5144 000:886.990 - 0.013ms returns 0
T5144 000:887.003 JLINK_WriteReg(R1, 0x00002000)
T5144 000:887.016 - 0.012ms returns 0
T5144 000:887.026 JLINK_WriteReg(R2, 0x000000FF)
T5144 000:887.037 - 0.010ms returns 0
T5144 000:887.068 JLINK_WriteReg(R3, 0x00000000)
T5144 000:887.078 - 0.010ms returns 0
T5144 000:887.089 JLINK_WriteReg(R4, 0x00000000)
T5144 000:887.100 - 0.011ms returns 0
T5144 000:887.111 JLINK_WriteReg(R5, 0x00000000)
T5144 000:887.122 - 0.010ms returns 0
T5144 000:887.133 JLINK_WriteReg(R6, 0x00000000)
T5144 000:887.143 - 0.010ms returns 0
T5144 000:887.154 JLINK_WriteReg(R7, 0x00000000)
T5144 000:887.165 - 0.011ms returns 0
T5144 000:887.176 JLINK_WriteReg(R8, 0x00000000)
T5144 000:887.186 - 0.010ms returns 0
T5144 000:887.197 JLINK_WriteReg(R9, 0x200002F0)
T5144 000:887.208 - 0.011ms returns 0
T5144 000:887.219 JLINK_WriteReg(R10, 0x00000000)
T5144 000:887.235 - 0.011ms returns 0
T5144 000:887.246 JLINK_WriteReg(R11, 0x00000000)
T5144 000:887.257 - 0.011ms returns 0
T5144 000:887.272 JLINK_WriteReg(R12, 0x00000000)
T5144 000:887.283 - 0.011ms returns 0
T5144 000:887.294 JLINK_WriteReg(R13 (SP), 0x20008000)
T5144 000:887.305 - 0.011ms returns 0
T5144 000:887.316 JLINK_WriteReg(R14, 0x20000001)
T5144 000:887.327 - 0.010ms returns 0
T5144 000:887.338 JLINK_WriteReg(R15 (PC), 0x20000020)
T5144 000:887.349 - 0.010ms returns 0
T5144 000:887.360 JLINK_WriteReg(XPSR, 0x01000000)
T5144 000:887.371 - 0.010ms returns 0
T5144 000:887.381 JLINK_WriteReg(MSP, 0x20008000)
T5144 000:887.392 - 0.010ms returns 0
T5144 000:887.403 JLINK_WriteReg(PSP, 0x20008000)
T5144 000:887.412 - 0.009ms returns 0
T5144 000:887.423 JLINK_WriteReg(CFBP, 0x00000000)
T5144 000:887.433 - 0.010ms returns 0
T5144 000:887.443 JLINK_SetBPEx(Addr = 0x20000000, Type = 0xFFFFFFF2)
T5144 000:887.454 - 0.010ms returns 0x00000008
T5144 000:887.464 JLINK_Go()
T5144 000:887.477   CPU_WriteMem(4 bytes @ 0xE0002000)
T5144 000:887.849   CPU_ReadMem(4 bytes @ 0xE0001000)
T5144 000:890.104 - 2.639ms 
T5144 000:890.135 JLINK_IsHalted()
T5144 000:892.274 - 2.138ms returns TRUE
T5144 000:892.333 JLINK_ReadReg(R15 (PC))
T5144 000:892.348   CPU_ReadMem(4 bytes @ 0xE000EE08)
T5144 000:892.674 - 0.341ms returns 0x20000000
T5144 000:892.687 JLINK_ClrBPEx(BPHandle = 0x00000008)
T5144 000:892.699 - 0.012ms returns 0x00
T5144 000:892.710 JLINK_ReadReg(R0)
T5144 000:892.722 - 0.012ms returns 0x00000001
T5144 000:892.733 JLINK_HasError()
T5144 000:892.744 JLINK_WriteReg(R0, 0x08006000)
T5144 000:892.755 - 0.011ms returns 0
T5144 000:892.766 JLINK_WriteReg(R1, 0x00002000)
T5144 000:892.775 - 0.009ms returns 0
T5144 000:892.785 JLINK_WriteReg(R2, 0x000000FF)
T5144 000:892.794 - 0.009ms returns 0
T5144 000:892.804 JLINK_WriteReg(R3, 0x00000000)
T5144 000:892.814 - 0.009ms returns 0
T5144 000:892.824 JLINK_WriteReg(R4, 0x00000000)
T5144 000:892.834 - 0.010ms returns 0
T5144 000:892.851 JLINK_WriteReg(R5, 0x00000000)
T5144 000:892.864 - 0.012ms returns 0
T5144 000:892.874 JLINK_WriteReg(R6, 0x00000000)
T5144 000:892.883 - 0.009ms returns 0
T5144 000:892.892 JLINK_WriteReg(R7, 0x00000000)
T5144 000:892.902 - 0.009ms returns 0
T5144 000:892.912 JLINK_WriteReg(R8, 0x00000000)
T5144 000:892.922 - 0.010ms returns 0
T5144 000:892.932 JLINK_WriteReg(R9, 0x200002F0)
T5144 000:892.942 - 0.010ms returns 0
T5144 000:892.952 JLINK_WriteReg(R10, 0x00000000)
T5144 000:892.962 - 0.010ms returns 0
T5144 000:892.972 JLINK_WriteReg(R11, 0x00000000)
T5144 000:892.982 - 0.009ms returns 0
T5144 000:892.992 JLINK_WriteReg(R12, 0x00000000)
T5144 000:893.001 - 0.009ms returns 0
T5144 000:893.012 JLINK_WriteReg(R13 (SP), 0x20008000)
T5144 000:893.023 - 0.010ms returns 0
T5144 000:893.034 JLINK_WriteReg(R14, 0x20000001)
T5144 000:893.045 - 0.010ms returns 0
T5144 000:893.055 JLINK_WriteReg(R15 (PC), 0x2000006C)
T5144 000:893.066 - 0.011ms returns 0
T5144 000:893.077 JLINK_WriteReg(XPSR, 0x01000000)
T5144 000:893.088 - 0.011ms returns 0
T5144 000:893.099 JLINK_WriteReg(MSP, 0x20008000)
T5144 000:893.109 - 0.010ms returns 0
T5144 000:893.120 JLINK_WriteReg(PSP, 0x20008000)
T5144 000:893.131 - 0.011ms returns 0
T5144 000:893.142 JLINK_WriteReg(CFBP, 0x00000000)
T5144 000:893.156 - 0.013ms returns 0
T5144 000:893.167 JLINK_SetBPEx(Addr = 0x20000000, Type = 0xFFFFFFF2)
T5144 000:893.178 - 0.011ms returns 0x00000009
T5144 000:893.190 JLINK_Go()
T5144 000:893.202   CPU_WriteMem(4 bytes @ 0xE0002000)
T5144 000:893.500   CPU_ReadMem(4 bytes @ 0xE0001000)
T5144 000:895.699 - 2.508ms 
T5144 000:895.719 JLINK_IsHalted()
T5144 000:896.033 - 0.313ms returns FALSE
T5144 000:896.046 JLINK_HasError()
T5144 000:898.010 JLINK_IsHalted()
T5144 000:900.223 - 2.213ms returns TRUE
T5144 000:900.240 JLINK_ReadReg(R15 (PC))
T5144 000:900.254   CPU_ReadMem(4 bytes @ 0xE000EE08)
T5144 000:900.634 - 0.394ms returns 0x20000000
T5144 000:900.646 JLINK_ClrBPEx(BPHandle = 0x00000009)
T5144 000:900.657 - 0.011ms returns 0x00
T5144 000:900.668 JLINK_ReadReg(R0)
T5144 000:900.678 - 0.010ms returns 0x00000000
T5144 000:900.969 JLINK_HasError()
T5144 000:900.986 JLINK_WriteReg(R0, 0x00000001)
T5144 000:901.000 - 0.013ms returns 0
T5144 000:901.011 JLINK_WriteReg(R1, 0x00002000)
T5144 000:901.022 - 0.010ms returns 0
T5144 000:901.034 JLINK_WriteReg(R2, 0x000000FF)
T5144 000:901.043 - 0.009ms returns 0
T5144 000:901.053 JLINK_WriteReg(R3, 0x00000000)
T5144 000:901.064 - 0.010ms returns 0
T5144 000:901.075 JLINK_WriteReg(R4, 0x00000000)
T5144 000:901.086 - 0.010ms returns 0
T5144 000:901.097 JLINK_WriteReg(R5, 0x00000000)
T5144 000:901.108 - 0.011ms returns 0
T5144 000:901.119 JLINK_WriteReg(R6, 0x00000000)
T5144 000:901.130 - 0.010ms returns 0
T5144 000:901.140 JLINK_WriteReg(R7, 0x00000000)
T5144 000:901.151 - 0.010ms returns 0
T5144 000:901.162 JLINK_WriteReg(R8, 0x00000000)
T5144 000:901.173 - 0.010ms returns 0
T5144 000:901.184 JLINK_WriteReg(R9, 0x200002F0)
T5144 000:901.194 - 0.010ms returns 0
T5144 000:901.205 JLINK_WriteReg(R10, 0x00000000)
T5144 000:901.216 - 0.010ms returns 0
T5144 000:901.227 JLINK_WriteReg(R11, 0x00000000)
T5144 000:901.238 - 0.010ms returns 0
T5144 000:901.249 JLINK_WriteReg(R12, 0x00000000)
T5144 000:901.260 - 0.011ms returns 0
T5144 000:901.272 JLINK_WriteReg(R13 (SP), 0x20008000)
T5144 000:901.283 - 0.012ms returns 0
T5144 000:901.295 JLINK_WriteReg(R14, 0x20000001)
T5144 000:901.306 - 0.011ms returns 0
T5144 000:901.317 JLINK_WriteReg(R15 (PC), 0x200002BC)
T5144 000:901.328 - 0.010ms returns 0
T5144 000:901.337 JLINK_WriteReg(XPSR, 0x01000000)
T5144 000:901.348 - 0.010ms returns 0
T5144 000:901.358 JLINK_WriteReg(MSP, 0x20008000)
T5144 000:901.369 - 0.010ms returns 0
T5144 000:901.379 JLINK_WriteReg(PSP, 0x20008000)
T5144 000:901.389 - 0.010ms returns 0
T5144 000:901.399 JLINK_WriteReg(CFBP, 0x00000000)
T5144 000:901.409 - 0.010ms returns 0
T5144 000:901.420 JLINK_SetBPEx(Addr = 0x20000000, Type = 0xFFFFFFF2)
T5144 000:901.431 - 0.011ms returns 0x0000000A
T5144 000:901.446 JLINK_Go()
T5144 000:901.459   CPU_WriteMem(4 bytes @ 0xE0002000)
T5144 000:901.781   CPU_ReadMem(4 bytes @ 0xE0001000)
T5144 000:904.136 - 2.689ms 
T5144 000:904.165 JLINK_IsHalted()
T5144 000:906.298 - 2.130ms returns TRUE
T5144 000:906.321 JLINK_ReadReg(R15 (PC))
T5144 000:906.334   CPU_ReadMem(4 bytes @ 0xE000EE08)
T5144 000:906.727 - 0.405ms returns 0x20000000
T5144 000:906.741 JLINK_ClrBPEx(BPHandle = 0x0000000A)
T5144 000:906.756 - 0.015ms returns 0x00
T5144 000:906.767 JLINK_ReadReg(R0)
T5144 000:906.779 - 0.011ms returns 0x00000000
T5144 000:965.772 JLINK_WriteMem(0x20000000, 0x2F4 Bytes, ...)
T5144 000:965.803   Data:  00 BE 0A E0 0D 78 2D 06 68 40 08 24 40 00 00 D3 ...
T5144 000:965.833   CPU_WriteMem(756 bytes @ 0x20000000)
T5144 000:968.746 - 2.971ms returns 0x2F4
T5144 000:968.800 JLINK_HasError()
T5144 000:968.814 JLINK_WriteReg(R0, 0x08000000)
T5144 000:968.829 - 0.015ms returns 0
T5144 000:968.841 JLINK_WriteReg(R1, 0x007A1200)
T5144 000:968.852 - 0.011ms returns 0
T5144 000:968.864 JLINK_WriteReg(R2, 0x00000002)
T5144 000:968.874 - 0.010ms returns 0
T5144 000:968.884 JLINK_WriteReg(R3, 0x00000000)
T5144 000:968.894 - 0.010ms returns 0
T5144 000:968.906 JLINK_WriteReg(R4, 0x00000000)
T5144 000:968.916 - 0.010ms returns 0
T5144 000:968.926 JLINK_WriteReg(R5, 0x00000000)
T5144 000:968.937 - 0.010ms returns 0
T5144 000:968.948 JLINK_WriteReg(R6, 0x00000000)
T5144 000:968.958 - 0.010ms returns 0
T5144 000:968.968 JLINK_WriteReg(R7, 0x00000000)
T5144 000:968.979 - 0.010ms returns 0
T5144 000:968.996 JLINK_WriteReg(R8, 0x00000000)
T5144 000:969.007 - 0.014ms returns 0
T5144 000:969.017 JLINK_WriteReg(R9, 0x200002F0)
T5144 000:969.028 - 0.010ms returns 0
T5144 000:969.039 JLINK_WriteReg(R10, 0x00000000)
T5144 000:969.049 - 0.010ms returns 0
T5144 000:969.060 JLINK_WriteReg(R11, 0x00000000)
T5144 000:969.071 - 0.010ms returns 0
T5144 000:969.082 JLINK_WriteReg(R12, 0x00000000)
T5144 000:969.093 - 0.011ms returns 0
T5144 000:969.105 JLINK_WriteReg(R13 (SP), 0x20008000)
T5144 000:969.117 - 0.011ms returns 0
T5144 000:969.134 JLINK_WriteReg(R14, 0x20000001)
T5144 000:969.145 - 0.011ms returns 0
T5144 000:969.156 JLINK_WriteReg(R15 (PC), 0x20000110)
T5144 000:969.167 - 0.010ms returns 0
T5144 000:969.178 JLINK_WriteReg(XPSR, 0x01000000)
T5144 000:969.188 - 0.010ms returns 0
T5144 000:969.232 JLINK_WriteReg(MSP, 0x20008000)
T5144 000:969.244 - 0.012ms returns 0
T5144 000:969.255 JLINK_WriteReg(PSP, 0x20008000)
T5144 000:969.266 - 0.010ms returns 0
T5144 000:969.277 JLINK_WriteReg(CFBP, 0x00000000)
T5144 000:969.288 - 0.010ms returns 0
T5144 000:969.299 JLINK_SetBPEx(Addr = 0x20000000, Type = 0xFFFFFFF2)
T5144 000:969.310 - 0.012ms returns 0x0000000B
T5144 000:969.322 JLINK_Go()
T5144 000:969.335   CPU_WriteMem(4 bytes @ 0xE0002000)
T5144 000:969.629   CPU_ReadMem(4 bytes @ 0xE0001000)
T5144 000:971.985 - 2.661ms 
T5144 000:972.014 JLINK_IsHalted()
T5144 000:974.108 - 2.093ms returns TRUE
T5144 000:974.130 JLINK_ReadReg(R15 (PC))
T5144 000:974.162   CPU_ReadMem(4 bytes @ 0xE000EE08)
T5144 000:974.551 - 0.421ms returns 0x20000000
T5144 000:974.564 JLINK_ClrBPEx(BPHandle = 0x0000000B)
T5144 000:974.576 - 0.012ms returns 0x00
T5144 000:974.587 JLINK_ReadReg(R0)
T5144 000:974.598 - 0.010ms returns 0x00000000
T5144 000:974.912 JLINK_WriteMem(0x20000308, 0xF8 Bytes, ...)
T5144 000:974.927   Data:  A0 1F 00 20 29 03 00 08 81 5C 00 08 19 4B 00 08 ...
T5144 000:974.948   CPU_WriteMem(248 bytes @ 0x20000308)
T5144 000:976.212 - 1.298ms returns 0xF8
T5144 000:976.263 JLINK_WriteMem(0x20000400, 0x308 Bytes, ...)
T5144 000:976.275   Data:  8D 60 00 08 00 00 00 00 00 00 00 00 45 03 00 08 ...
T5144 000:976.296   CPU_WriteMem(776 bytes @ 0x20000400)
T5144 000:979.159 - 2.895ms returns 0x308
T5144 000:979.182 JLINK_HasError()
T5144 000:979.195 JLINK_WriteReg(R0, 0x08000000)
T5144 000:979.210 - 0.013ms returns 0
T5144 000:979.231 JLINK_WriteReg(R1, 0x00000400)
T5144 000:979.242 - 0.010ms returns 0
T5144 000:979.253 JLINK_WriteReg(R2, 0x20000308)
T5144 000:979.270 - 0.017ms returns 0
T5144 000:979.283 JLINK_WriteReg(R3, 0x00000000)
T5144 000:979.294 - 0.011ms returns 0
T5144 000:979.305 JLINK_WriteReg(R4, 0x00000000)
T5144 000:979.315 - 0.010ms returns 0
T5144 000:979.326 JLINK_WriteReg(R5, 0x00000000)
T5144 000:979.337 - 0.011ms returns 0
T5144 000:979.348 JLINK_WriteReg(R6, 0x00000000)
T5144 000:979.359 - 0.010ms returns 0
T5144 000:979.370 JLINK_WriteReg(R7, 0x00000000)
T5144 000:979.381 - 0.010ms returns 0
T5144 000:979.392 JLINK_WriteReg(R8, 0x00000000)
T5144 000:979.402 - 0.010ms returns 0
T5144 000:979.413 JLINK_WriteReg(R9, 0x200002F0)
T5144 000:979.424 - 0.011ms returns 0
T5144 000:979.436 JLINK_WriteReg(R10, 0x00000000)
T5144 000:979.447 - 0.010ms returns 0
T5144 000:979.457 JLINK_WriteReg(R11, 0x00000000)
T5144 000:979.468 - 0.010ms returns 0
T5144 000:979.479 JLINK_WriteReg(R12, 0x00000000)
T5144 000:979.489 - 0.010ms returns 0
T5144 000:979.500 JLINK_WriteReg(R13 (SP), 0x20008000)
T5144 000:979.511 - 0.011ms returns 0
T5144 000:979.522 JLINK_WriteReg(R14, 0x20000001)
T5144 000:979.533 - 0.011ms returns 0
T5144 000:979.544 JLINK_WriteReg(R15 (PC), 0x20000224)
T5144 000:979.555 - 0.010ms returns 0
T5144 000:979.566 JLINK_WriteReg(XPSR, 0x01000000)
T5144 000:979.576 - 0.010ms returns 0
T5144 000:979.587 JLINK_WriteReg(MSP, 0x20008000)
T5144 000:979.598 - 0.010ms returns 0
T5144 000:979.609 JLINK_WriteReg(PSP, 0x20008000)
T5144 000:979.620 - 0.011ms returns 0
T5144 000:979.631 JLINK_WriteReg(CFBP, 0x00000000)
T5144 000:979.642 - 0.011ms returns 0
T5144 000:979.654 JLINK_SetBPEx(Addr = 0x20000000, Type = 0xFFFFFFF2)
T5144 000:979.665 - 0.012ms returns 0x0000000C
T5144 000:979.676 JLINK_Go()
T5144 000:979.688   CPU_WriteMem(4 bytes @ 0xE0002000)
T5144 000:980.014   CPU_ReadMem(4 bytes @ 0xE0001000)
T5144 000:982.361 - 2.684ms 
T5144 000:982.377 JLINK_IsHalted()
T5144 000:982.766 - 0.389ms returns FALSE
T5144 000:982.793 JLINK_HasError()
T5144 000:989.967 JLINK_IsHalted()
T5144 000:991.941 - 1.973ms returns TRUE
T5144 000:991.968 JLINK_ReadReg(R15 (PC))
T5144 000:991.982   CPU_ReadMem(4 bytes @ 0xE000EE08)
T5144 000:992.195 - 0.227ms returns 0x20000000
T5144 000:992.208 JLINK_ClrBPEx(BPHandle = 0x0000000C)
T5144 000:992.220 - 0.011ms returns 0x00
T5144 000:992.231 JLINK_ReadReg(R0)
T5144 000:992.243 - 0.011ms returns 0x00000000
T5144 000:992.554 JLINK_WriteMem(0x20000308, 0xF8 Bytes, ...)
T5144 000:992.569   Data:  69 46 53 46 20 F0 07 00 85 46 18 B0 20 B5 FF F7 ...
T5144 000:992.589   CPU_WriteMem(248 bytes @ 0x20000308)
T5144 000:993.774 - 1.217ms returns 0xF8
T5144 000:993.788 JLINK_WriteMem(0x20000400, 0x308 Bytes, ...)
T5144 000:993.799   Data:  02 99 08 65 00 98 00 F5 1E 70 02 99 48 65 00 98 ...
T5144 000:993.818   CPU_WriteMem(776 bytes @ 0x20000400)
T5144 000:996.597 - 2.808ms returns 0x308
T5144 000:996.620 JLINK_HasError()
T5144 000:996.632 JLINK_WriteReg(R0, 0x08000400)
T5144 000:996.644 - 0.012ms returns 0
T5144 000:996.654 JLINK_WriteReg(R1, 0x00000400)
T5144 000:996.665 - 0.011ms returns 0
T5144 000:996.675 JLINK_WriteReg(R2, 0x20000308)
T5144 000:996.685 - 0.010ms returns 0
T5144 000:996.695 JLINK_WriteReg(R3, 0x00000000)
T5144 000:996.705 - 0.009ms returns 0
T5144 000:996.716 JLINK_WriteReg(R4, 0x00000000)
T5144 000:996.727 - 0.010ms returns 0
T5144 000:996.740 JLINK_WriteReg(R5, 0x00000000)
T5144 000:996.751 - 0.011ms returns 0
T5144 000:996.763 JLINK_WriteReg(R6, 0x00000000)
T5144 000:996.774 - 0.011ms returns 0
T5144 000:996.785 JLINK_WriteReg(R7, 0x00000000)
T5144 000:996.796 - 0.010ms returns 0
T5144 000:996.807 JLINK_WriteReg(R8, 0x00000000)
T5144 000:996.818 - 0.011ms returns 0
T5144 000:996.829 JLINK_WriteReg(R9, 0x200002F0)
T5144 000:996.840 - 0.011ms returns 0
T5144 000:996.851 JLINK_WriteReg(R10, 0x00000000)
T5144 000:996.862 - 0.011ms returns 0
T5144 000:996.875 JLINK_WriteReg(R11, 0x00000000)
T5144 000:996.884 - 0.009ms returns 0
T5144 000:996.894 JLINK_WriteReg(R12, 0x00000000)
T5144 000:996.906 - 0.011ms returns 0
T5144 000:996.954 JLINK_WriteReg(R13 (SP), 0x20008000)
T5144 000:996.969 - 0.015ms returns 0
T5144 000:996.981 JLINK_WriteReg(R14, 0x20000001)
T5144 000:996.992 - 0.011ms returns 0
T5144 000:997.003 JLINK_WriteReg(R15 (PC), 0x20000224)
T5144 000:997.014 - 0.011ms returns 0
T5144 000:997.024 JLINK_WriteReg(XPSR, 0x01000000)
T5144 000:997.035 - 0.011ms returns 0
T5144 000:997.049 JLINK_WriteReg(MSP, 0x20008000)
T5144 000:997.061 - 0.011ms returns 0
T5144 000:997.071 JLINK_WriteReg(PSP, 0x20008000)
T5144 000:997.082 - 0.010ms returns 0
T5144 000:997.093 JLINK_WriteReg(CFBP, 0x00000000)
T5144 000:997.104 - 0.011ms returns 0
T5144 000:997.115 JLINK_SetBPEx(Addr = 0x20000000, Type = 0xFFFFFFF2)
T5144 000:997.127 - 0.012ms returns 0x0000000D
T5144 000:997.138 JLINK_Go()
T5144 000:997.150   CPU_WriteMem(4 bytes @ 0xE0002000)
T5144 000:997.498   CPU_ReadMem(4 bytes @ 0xE0001000)
T5144 000:999.571 - 2.432ms 
T5144 000:999.599 JLINK_IsHalted()
T5144 000:999.870 - 0.270ms returns FALSE
T5144 000:999.882 JLINK_HasError()
T5144 001:001.000 JLINK_IsHalted()
T5144 001:001.299 - 0.299ms returns FALSE
T5144 001:001.312 JLINK_HasError()
T5144 001:002.986 JLINK_IsHalted()
T5144 001:004.973 - 1.987ms returns TRUE
T5144 001:004.991 JLINK_ReadReg(R15 (PC))
T5144 001:005.005   CPU_ReadMem(4 bytes @ 0xE000EE08)
T5144 001:005.378 - 0.386ms returns 0x20000000
T5144 001:005.390 JLINK_ClrBPEx(BPHandle = 0x0000000D)
T5144 001:005.402 - 0.011ms returns 0x00
T5144 001:005.413 JLINK_ReadReg(R0)
T5144 001:005.424 - 0.011ms returns 0x00000000
T5144 001:005.766 JLINK_WriteMem(0x20000308, 0xF8 Bytes, ...)
T5144 001:005.781   Data:  FF E7 9D F8 0C 00 00 06 00 28 09 D5 FF E7 02 9A ...
T5144 001:005.800   CPU_WriteMem(248 bytes @ 0x20000308)
T5144 001:006.977 - 1.210ms returns 0xF8
T5144 001:006.995 JLINK_WriteMem(0x20000400, 0x308 Bytes, ...)
